
T1650 000:371 SEGGER J-Link V4.80g Log File (0000ms, 0262ms total)
T1650 000:371 DLL Compiled: Feb 13 2014 20:50:02 (0000ms, 0262ms total)
T1650 000:371 Logging started @ 2016-01-05 22:18 (0000ms, 0262ms total)
T1650 000:371 JLINK_SetWarnOutHandler(...) (0000ms, 0262ms total)
T1650 000:371 JLINK_OpenEx(...)
Firmware: J-Link ARM V8 compiled Nov 25 2013 19:20:08
Hardware: V8.00
S/N: 17935099
Feature(s): RDI,FlashDL,FlashBP,JFlash  returns O.K. (0260ms, 0522ms total)
T1650 000:631 JLINK_SetErrorOutHandler(...) (0000ms, 0522ms total)
T1650 000:631 JLINK_ExecCommand("ProjectFile = "G:\GitHub\STemWin-Draw_2D\STemWin-Draw_2D\USER\JLinkSettings.ini"", ...)  returns 0x00 (0000ms, 0522ms total)
T1650 000:631 JLINK_ExecCommand("Device = STM32F103RC", ...)Device "STM32F103RC" selected (256 KB flash, 48 KB RAM).  returns 0x00 (0000ms, 0522ms total)
T1650 000:631 JLINK_ExecCommand("DisableConnectionTimeout", ...)  returns 0x01 (0000ms, 0522ms total)
T1650 000:631 JLINK_GetHardwareVersion()  returns 0x13880 (0000ms, 0522ms total)
T1650 000:631 JLINK_GetDLLVersion()  returns 48007 (0000ms, 0522ms total)
T1650 000:631 JLINK_GetFirmwareString(...) (0000ms, 0522ms total)
T1650 000:632 JLINK_GetDLLVersion()  returns 48007 (0000ms, 0522ms total)
T1650 000:632 JLINK_GetCompileDateTime() (0000ms, 0522ms total)
T1650 000:632 JLINK_GetFirmwareString(...) (0000ms, 0522ms total)
T1650 000:633 JLINK_GetHardwareVersion()  returns 0x13880 (0000ms, 0522ms total)
T1650 000:634 JLINK_TIF_Select(JLINKARM_TIF_SWD)  returns 0x00 (0001ms, 0523ms total)
T1650 000:635 JLINK_SetSpeed(5000) (0000ms, 0523ms total)
T1650 000:635 JLINK_GetId() >0x108 TIF>Found SWD-DP with ID 0x1BA01477 >0x0D TIF> >0x28 TIF> >0x0D TIF> >0x28 TIF> >0x0D TIF> >0x21 TIF> >0x0D TIF> >0x28 TIF> >0x0D TIF> >0x28 TIF> >0x0D TIF> >0x28 TIF> >0x0D TIF> >0x21 TIF> >0x0D TIF> >0x21 TIF> >0x0D TIF> >0x28 TIF> >0x0D TIF> >0x21 TIF> >0x0D TIF> >0x21 TIF> >0x108 TIF>Found SWD-DP with ID 0x1BA01477 >0x0D TIF> >0x21 TIF> >0x0D TIF> >0x28 TIF> >0x0D TIF> >0x28 TIF> >0x0D TIF> >0x21 TIF> >0x0D TIF> >0x28 TIF> >0x0D TIF> >0x21 TIF> >0x0D TIF> >0x21 TIF>
 >0x0D TIF> >0x21 TIF> >0x0D TIF> >0x21 TIF> >0x0D TIF> >0x28 TIF> >0x0D TIF> >0x28 TIF> >0x0D TIF> >0x21 TIF> >0x0D TIF> >0x28 TIF> >0x0D TIF> >0x28 TIF> >0x0D TIF> >0x28 TIF> >0x0D TIF> >0x21 TIF> >0x0D TIF> >0x21 TIF> >0x0D TIF> >0x28 TIF> >0x0D TIF> >0x21 TIF> >0x0D TIF> >0x21 TIF>Found Cortex-M3 r1p1, Little endian. -- CPU_WriteMem(4 bytes @ 0xE0002000) -- CPU_ReadMem(4 bytes @ 0xE000EDF0) -- CPU_ReadMem(4 bytes @ 0xE0002000)FPUnit: 6 code (BP) slots and 2 literal slots
 -- CPU_ReadMem(4 bytes @ 0xE000EDFC) -- CPU_ReadMem(4 bytes @ 0xE0001000) -- CPU_WriteMem(4 bytes @ 0xE0001000) -- CPU_ReadMem(4 bytes @ 0xE00FF010)TPIU fitted. -- CPU_ReadMem(4 bytes @ 0xE00FF014)ETM fitted. -- CPU_ReadMem(4 bytes @ 0xE00FF018) >0x0D TIF> >0x21 TIF>  returns 0x1BA01477 (0041ms, 0564ms total)
T1650 000:676 JLINK_GetDeviceFamily()  returns 3 (0000ms, 0564ms total)
T1650 000:677 JLINK_ReadMem (0xE00FFFF0, 0x0010 Bytes, ...) -- CPU is running -- CPU_ReadMem(16 bytes @ 0xE00FFFF0) -- Data:  0D 00 00 00 10 00 00 00 05 00 00 00 B1 00 00 00  returns 0x00 (0000ms, 0564ms total)
T1650 000:677 JLINK_ReadMem (0xE00FFFD0, 0x0020 Bytes, ...) -- CPU is running -- CPU_ReadMem(32 bytes @ 0xE00FFFD0) -- Data:  00 00 00 00 00 00 00 00 00 00 00 00 00 00 00 00 ...  returns 0x00 (0001ms, 0565ms total)
T1650 000:678 JLINK_ReadMem (0xE00FF000, 0x0018 Bytes, ...) -- CPU is running -- CPU_ReadMem(24 bytes @ 0xE00FF000) -- Data:  03 F0 F0 FF 03 20 F0 FF 03 30 F0 FF 03 10 F0 FF ...  returns 0x00 (0001ms, 0566ms total)
T1650 000:679 JLINK_ReadMemU32(0xE000ED00, 0x0001 Items, ...) -- CPU is running -- CPU_ReadMem(4 bytes @ 0xE000ED00) -- Data:  31 C2 1F 41  returns 0x01 (0001ms, 0567ms total)
T1650 000:680 JLINK_SetResetType(JLINKARM_RESET_TYPE_NORMAL)  returns JLINKARM_RESET_TYPE_NORMAL (0000ms, 0567ms total)
T1650 000:680 JLINK_Reset() -- CPU is running -- CPU_WriteMem(4 bytes @ 0xE000EDF0) -- CPU is running -- CPU_WriteMem(4 bytes @ 0xE000EDFC) >0x35 TIF> -- CPU is running -- CPU_WriteMem(4 bytes @ 0xE000ED0C) -- CPU is running -- CPU_ReadMem(4 bytes @ 0xE000EDF0) -- CPU is running -- CPU_ReadMem(4 bytes @ 0xE000EDF0) -- CPU is running -- CPU_WriteMem(4 bytes @ 0xE000EDF0) -- CPU is running -- CPU_WriteMem(4 bytes @ 0xE000EDFC) -- CPU is running -- CPU_ReadMem(4 bytes @ 0xE000EDF0)
 -- CPU_WriteMem(4 bytes @ 0xE0002000) -- CPU_ReadMem(4 bytes @ 0xE000EDFC) -- CPU_ReadMem(4 bytes @ 0xE0001000) (0020ms, 0587ms total)
T1650 000:700 JLINK_ReadReg(R15 (PC))  returns 0x08008A68 (0000ms, 0587ms total)
T1650 000:700 JLINK_ReadReg(XPSR)  returns 0x01000000 (0000ms, 0587ms total)
T1650 000:700 JLINK_Halt()  returns 0x00 (0000ms, 0587ms total)
T1650 000:700 JLINK_IsHalted()  returns TRUE (0000ms, 0587ms total)
T1650 000:700 JLINK_ReadMemU32(0xE000EDF0, 0x0001 Items, ...) -- CPU_ReadMem(4 bytes @ 0xE000EDF0) -- Data:  03 00 03 00  returns 0x01 (0001ms, 0588ms total)
T1650 000:701 JLINK_WriteU32(0xE000EDF0, 0xA05F0003) -- CPU_WriteMem(4 bytes @ 0xE000EDF0)  returns 0x00 (0000ms, 0588ms total)
T1650 000:701 JLINK_WriteU32(0xE000EDFC, 0x01000000) -- CPU_WriteMem(4 bytes @ 0xE000EDFC)  returns 0x00 (0001ms, 0589ms total)
T1650 000:702 JLINK_GetHWStatus(...)  returns 0x00 (0001ms, 0590ms total)
T1650 000:703 JLINK_GetNumBPUnits(Type = 0xFFFFFF00)  returns 0x06 (0000ms, 0590ms total)
T1650 000:703 JLINK_GetNumBPUnits(Type = 0xF0)  returns 0x2000 (0000ms, 0590ms total)
T1650 000:703 JLINK_GetNumWPUnits()  returns 0x04 (0000ms, 0590ms total)
T1650 000:703 JLINK_GetSpeed()  returns 0xFA0 (0000ms, 0590ms total)
T1650 000:703 JLINK_ReadMemU32(0xE000E004, 0x0001 Items, ...) -- CPU_ReadMem(4 bytes @ 0xE000E004) -- Data:  01 00 00 00  returns 0x01 (0001ms, 0591ms total)
T1650 000:704 JLINK_ReadMemU32(0xE000E004, 0x0001 Items, ...) -- CPU_ReadMem(4 bytes @ 0xE000E004) -- Data:  01 00 00 00  returns 0x01 (0000ms, 0591ms total)
T1650 000:704 JLINK_WriteMem(0xE0001000, 0x001C Bytes, ...) -- Data:  01 00 00 00 00 00 00 00 00 00 00 00 00 00 00 00 ... -- CPU_WriteMem(28 bytes @ 0xE0001000)  returns 0x1C (0001ms, 0592ms total)
T1650 000:705 JLINK_ReadMem (0xE0001000, 0x001C Bytes, ...) -- CPU_ReadMem(28 bytes @ 0xE0001000) -- Data:  01 00 00 40 00 00 00 00 00 00 00 00 00 00 00 00 ...  returns 0x00 (0001ms, 0593ms total)
T1650 000:706 JLINK_ReadReg(R15 (PC))  returns 0x08008A68 (0000ms, 0593ms total)
T1650 000:706 JLINK_ReadReg(XPSR)  returns 0x01000000 (0000ms, 0593ms total)
T1650 000:856 JLINK_SetResetType(JLINKARM_RESET_TYPE_NORMAL)  returns JLINKARM_RESET_TYPE_NORMAL (0001ms, 0594ms total)
T1650 000:857 JLINK_Reset() -- CPU_WriteMem(4 bytes @ 0xE000EDF0) -- CPU_WriteMem(4 bytes @ 0xE000EDFC) >0x35 TIF> -- CPU_WriteMem(4 bytes @ 0xE000ED0C) -- CPU_ReadMem(4 bytes @ 0xE000EDF0) -- CPU_ReadMem(4 bytes @ 0xE000EDF0) -- CPU_WriteMem(4 bytes @ 0xE000EDF0) -- CPU_WriteMem(4 bytes @ 0xE000EDFC) -- CPU is running -- CPU_ReadMem(4 bytes @ 0xE000EDF0) -- CPU_WriteMem(4 bytes @ 0xE0002000) -- CPU_ReadMem(4 bytes @ 0xE000EDFC) -- CPU_ReadMem(4 bytes @ 0xE0001000) (0019ms, 0613ms total)
T1650 000:876 JLINK_ReadReg(R15 (PC))  returns 0x08008A68 (0000ms, 0613ms total)
T1650 000:876 JLINK_ReadReg(XPSR)  returns 0x01000000 (0000ms, 0613ms total)
T1650 000:996 JLINK_ReadMem (0x08008A68, 0x003C Bytes, ...) -- CPU_ReadMem(128 bytes @ 0x08008A40) -- Updating C cache (128 bytes @ 0x08008A40) -- Read from C cache (60 bytes @ 0x08008A68) -- Data:  09 48 80 47 09 48 00 47 FE E7 FE E7 FE E7 FE E7 ...  returns 0x00 (0001ms, 0614ms total)
T1ED4 002:091 JLINK_SetBPEx(Addr = 0x08000534, Type = 0xFFFFFFF2)  returns 0x00000001 (0000ms, 0614ms total)
T1ED4 002:091 JLINK_SetBPEx(Addr = 0x080005EE, Type = 0xFFFFFFF2)  returns 0x00000002 (0000ms, 0614ms total)
T1ED4 002:091 JLINK_Go() -- CPU_WriteMem(4 bytes @ 0xE0002000) -- CPU_WriteMem(4 bytes @ 0xE0002008) -- CPU_WriteMem(4 bytes @ 0xE0002000) -- CPU_WriteMem(4 bytes @ 0xE000200C) -- CPU_WriteMem(4 bytes @ 0xE0002010) -- CPU_WriteMem(4 bytes @ 0xE0002014) -- CPU_WriteMem(4 bytes @ 0xE0002018) -- CPU_WriteMem(4 bytes @ 0xE000201C) -- CPU_WriteMem(4 bytes @ 0xE0001004) (0006ms, 0620ms total)
T1ED4 002:197 JLINK_IsHalted()  returns TRUE (0003ms, 0623ms total)
T1ED4 002:200 JLINK_Halt()  returns 0x00 (0000ms, 0620ms total)
T1ED4 002:200 JLINK_IsHalted()  returns TRUE (0000ms, 0620ms total)
T1ED4 002:200 JLINK_IsHalted()  returns TRUE (0000ms, 0620ms total)
T1ED4 002:200 JLINK_IsHalted()  returns TRUE (0000ms, 0620ms total)
T1ED4 002:200 JLINK_ReadReg(R15 (PC))  returns 0x08000534 (0000ms, 0620ms total)
T1ED4 002:200 JLINK_ReadReg(XPSR)  returns 0x21000000 (0000ms, 0620ms total)
T1ED4 002:200 JLINK_ClrBPEx(BPHandle = 0x00000001)  returns 0x00 (0000ms, 0620ms total)
T1ED4 002:200 JLINK_ClrBPEx(BPHandle = 0x00000002)  returns 0x00 (0000ms, 0620ms total)
T1ED4 002:200 JLINK_ReadMemU32(0xE000ED30, 0x0001 Items, ...) -- CPU_ReadMem(4 bytes @ 0xE000ED30) -- Data:  03 00 00 00  returns 0x01 (0001ms, 0621ms total)
T1ED4 002:201 JLINK_ReadMemU32(0xE0001028, 0x0001 Items, ...) -- CPU_ReadMem(4 bytes @ 0xE0001028) -- Data:  00 00 00 00  returns 0x01 (0001ms, 0622ms total)
T1ED4 002:202 JLINK_ReadMemU32(0xE0001038, 0x0001 Items, ...) -- CPU_ReadMem(4 bytes @ 0xE0001038) -- Data:  00 02 00 00  returns 0x01 (0000ms, 0622ms total)
T1ED4 002:202 JLINK_ReadMemU32(0xE0001048, 0x0001 Items, ...) -- CPU_ReadMem(4 bytes @ 0xE0001048) -- Data:  00 00 00 00  returns 0x01 (0001ms, 0623ms total)
T1ED4 002:203 JLINK_ReadMemU32(0xE0001058, 0x0001 Items, ...) -- CPU_ReadMem(4 bytes @ 0xE0001058) -- Data:  00 00 00 00  returns 0x01 (0001ms, 0624ms total)
T1ED4 002:204 JLINK_ReadReg(R0)  returns 0x20009E10 (0000ms, 0624ms total)
T1ED4 002:204 JLINK_ReadReg(R1)  returns 0x2000A010 (0000ms, 0624ms total)
T1ED4 002:204 JLINK_ReadReg(R2)  returns 0x2000A010 (0000ms, 0624ms total)
T1ED4 002:204 JLINK_ReadReg(R3)  returns 0x2000A010 (0000ms, 0624ms total)
T1ED4 002:204 JLINK_ReadReg(R4)  returns 0x00000000 (0000ms, 0624ms total)
T1ED4 002:204 JLINK_ReadReg(R5)  returns 0x20009DB0 (0000ms, 0624ms total)
T1ED4 002:204 JLINK_ReadReg(R6)  returns 0x00000000 (0000ms, 0624ms total)
T1ED4 002:204 JLINK_ReadReg(R7)  returns 0x00000000 (0000ms, 0624ms total)
T1ED4 002:204 JLINK_ReadReg(R8)  returns 0x00000000 (0000ms, 0624ms total)
T1ED4 002:204 JLINK_ReadReg(R9)  returns 0x09090909 (0000ms, 0624ms total)
T1ED4 002:204 JLINK_ReadReg(R10)  returns 0x0801B73C (0000ms, 0624ms total)
T1ED4 002:204 JLINK_ReadReg(R11)  returns 0x00000000 (0000ms, 0624ms total)
T1ED4 002:204 JLINK_ReadReg(R12)  returns 0x20009DF0 (0000ms, 0624ms total)
T1ED4 002:204 JLINK_ReadReg(R13 (SP))  returns 0x2000A810 (0000ms, 0624ms total)
T1ED4 002:204 JLINK_ReadReg(R14)  returns 0x0800021D (0000ms, 0624ms total)
T1ED4 002:204 JLINK_ReadReg(R15 (PC))  returns 0x08000534 (0000ms, 0624ms total)
T1ED4 002:204 JLINK_ReadReg(XPSR)  returns 0x21000000 (0000ms, 0624ms total)
T1ED4 002:204 JLINK_ReadReg(MSP)  returns 0x2000A810 (0000ms, 0624ms total)
T1ED4 002:204 JLINK_ReadReg(PSP)  returns 0x20009248 (0000ms, 0624ms total)
T1ED4 002:204 JLINK_ReadReg(CFBP)  returns 0x00000000 (0000ms, 0624ms total)
T1650 002:238 JLINK_ReadMemU32(0xE0001004, 0x0001 Items, ...) -- CPU_ReadMem(4 bytes @ 0xE0001004) -- Data:  15 8E 00 00  returns 0x01 (0001ms, 0625ms total)
T1650 002:239 JLINK_ReadMem (0x08000534, 0x003C Bytes, ...) -- CPU_ReadMem(128 bytes @ 0x08000500) -- Updating C cache (128 bytes @ 0x08000500) -- Read from C cache (60 bytes @ 0x08000534) -- Data:  10 B5 FF F7 79 FE FF F7 5A FF 0A F0 95 FB 14 23 ...  returns 0x00 (0002ms, 0627ms total)
T1ED4 022:319 JLINK_SetBPEx(Addr = 0x080005EE, Type = 0xFFFFFFF2)  returns 0x00000003 (0000ms, 0627ms total)
T1ED4 022:319 JLINK_SetBPEx(Addr = 0x08000462, Type = 0xFFFFFFF2)  returns 0x00000004 (0000ms, 0627ms total)
T1ED4 022:319 JLINK_Go() -- CPU_WriteMem(4 bytes @ 0xE0002000) -- CPU_WriteMem(4 bytes @ 0xE0002000) -- CPU_WriteMem(4 bytes @ 0xE0002008) -- CPU_WriteMem(4 bytes @ 0xE000200C) (0003ms, 0630ms total)
T1ED4 022:422 JLINK_IsHalted()  returns FALSE (0000ms, 0630ms total)
T1ED4 022:522 JLINK_IsHalted()  returns FALSE (0000ms, 0630ms total)
T1ED4 022:622 JLINK_IsHalted()  returns FALSE (0000ms, 0630ms total)
T1ED4 022:722 JLINK_IsHalted()  returns FALSE (0000ms, 0630ms total)
T1ED4 022:822 JLINK_IsHalted()  returns FALSE (0000ms, 0630ms total)
T1ED4 022:922 JLINK_IsHalted()  returns TRUE (0003ms, 0633ms total)
T1ED4 022:925 JLINK_Halt()  returns 0x00 (0000ms, 0630ms total)
T1ED4 022:925 JLINK_IsHalted()  returns TRUE (0000ms, 0630ms total)
T1ED4 022:925 JLINK_IsHalted()  returns TRUE (0000ms, 0630ms total)
T1ED4 022:925 JLINK_IsHalted()  returns TRUE (0000ms, 0630ms total)
T1ED4 022:925 JLINK_ReadReg(R15 (PC))  returns 0x08000462 (0000ms, 0630ms total)
T1ED4 022:925 JLINK_ReadReg(XPSR)  returns 0x01000000 (0000ms, 0630ms total)
T1ED4 022:925 JLINK_ClrBPEx(BPHandle = 0x00000003)  returns 0x00 (0000ms, 0630ms total)
T1ED4 022:925 JLINK_ClrBPEx(BPHandle = 0x00000004)  returns 0x00 (0000ms, 0630ms total)
T1ED4 022:925 JLINK_ReadMemU32(0xE000ED30, 0x0001 Items, ...) -- CPU_ReadMem(4 bytes @ 0xE000ED30) -- Data:  03 00 00 00  returns 0x01 (0000ms, 0630ms total)
T1ED4 022:925 JLINK_ReadMemU32(0xE0001028, 0x0001 Items, ...) -- CPU_ReadMem(4 bytes @ 0xE0001028) -- Data:  00 00 00 00  returns 0x01 (0001ms, 0631ms total)
T1ED4 022:926 JLINK_ReadMemU32(0xE0001038, 0x0001 Items, ...) -- CPU_ReadMem(4 bytes @ 0xE0001038) -- Data:  00 02 00 00  returns 0x01 (0001ms, 0632ms total)
T1ED4 022:927 JLINK_ReadMemU32(0xE0001048, 0x0001 Items, ...) -- CPU_ReadMem(4 bytes @ 0xE0001048) -- Data:  00 00 00 00  returns 0x01 (0001ms, 0633ms total)
T1ED4 022:928 JLINK_ReadMemU32(0xE0001058, 0x0001 Items, ...) -- CPU_ReadMem(4 bytes @ 0xE0001058) -- Data:  00 00 00 00  returns 0x01 (0000ms, 0633ms total)
T1ED4 022:928 JLINK_ReadReg(R0)  returns 0x00000000 (0000ms, 0633ms total)
T1ED4 022:928 JLINK_ReadReg(R1)  returns 0x00000064 (0000ms, 0633ms total)
T1ED4 022:928 JLINK_ReadReg(R2)  returns 0x08018C24 (0001ms, 0634ms total)
T1ED4 022:929 JLINK_ReadReg(R3)  returns 0x00000000 (0000ms, 0634ms total)
T1ED4 022:929 JLINK_ReadReg(R4)  returns 0x00000000 (0000ms, 0634ms total)
T1ED4 022:929 JLINK_ReadReg(R5)  returns 0x00000000 (0000ms, 0634ms total)
T1ED4 022:929 JLINK_ReadReg(R6)  returns 0x00000000 (0000ms, 0634ms total)
T1ED4 022:929 JLINK_ReadReg(R7)  returns 0x00000000 (0000ms, 0634ms total)
T1ED4 022:929 JLINK_ReadReg(R8)  returns 0x00000000 (0000ms, 0634ms total)
T1ED4 022:929 JLINK_ReadReg(R9)  returns 0x09090909 (0000ms, 0634ms total)
T1ED4 022:929 JLINK_ReadReg(R10)  returns 0x0801B73C (0000ms, 0634ms total)
T1ED4 022:929 JLINK_ReadReg(R11)  returns 0x00000000 (0000ms, 0634ms total)
T1ED4 022:929 JLINK_ReadReg(R12)  returns 0x0800E251 (0000ms, 0634ms total)
T1ED4 022:929 JLINK_ReadReg(R13 (SP))  returns 0x2000A7F8 (0000ms, 0634ms total)
T1ED4 022:929 JLINK_ReadReg(R14)  returns 0x08011D87 (0000ms, 0634ms total)
T1ED4 022:929 JLINK_ReadReg(R15 (PC))  returns 0x08000462 (0000ms, 0634ms total)
T1ED4 022:929 JLINK_ReadReg(XPSR)  returns 0x01000000 (0000ms, 0634ms total)
T1ED4 022:929 JLINK_ReadReg(MSP)  returns 0x2000A7F8 (0000ms, 0634ms total)
T1ED4 022:929 JLINK_ReadReg(PSP)  returns 0x20009248 (0000ms, 0634ms total)
T1ED4 022:929 JLINK_ReadReg(CFBP)  returns 0x00000000 (0000ms, 0634ms total)
T1650 022:930 JLINK_ReadMem (0x2000A804, 0x0004 Bytes, ...) -- CPU_ReadMem(64 bytes @ 0x2000A800) -- Updating C cache (64 bytes @ 0x2000A800) -- Read from C cache (4 bytes @ 0x2000A804) -- Data:  3F 05 00 08  returns 0x00 (0001ms, 0635ms total)
T1650 022:931 JLINK_ReadMem (0x2000A7F8, 0x0004 Bytes, ...) -- CPU_ReadMem(64 bytes @ 0x2000A7C0) -- Updating C cache (64 bytes @ 0x2000A7C0) -- Read from C cache (4 bytes @ 0x2000A7F8) -- Data:  00 00 00 00  returns 0x00 (0001ms, 0636ms total)
T1650 022:932 JLINK_ReadMem (0x2000A7FC, 0x0004 Bytes, ...) -- Read from C cache (4 bytes @ 0x2000A7FC) -- Data:  B0 9D 00 20  returns 0x00 (0000ms, 0636ms total)
T1650 022:932 JLINK_ReadMem (0x2000A800, 0x0004 Bytes, ...) -- Read from C cache (4 bytes @ 0x2000A800) -- Data:  00 00 00 00  returns 0x00 (0000ms, 0636ms total)
T1650 022:932 JLINK_ReadMem (0x2000A80C, 0x0004 Bytes, ...) -- Read from C cache (4 bytes @ 0x2000A80C) -- Data:  1D 02 00 08  returns 0x00 (0000ms, 0636ms total)
T1650 022:933 JLINK_ReadMemU32(0xE0001004, 0x0001 Items, ...) -- CPU_ReadMem(4 bytes @ 0xE0001004) -- Data:  3C BA 76 02  returns 0x01 (0000ms, 0636ms total)
T1650 022:934 JLINK_ReadMem (0x08000462, 0x0002 Bytes, ...) -- CPU_ReadMem(64 bytes @ 0x08000440) -- Updating C cache (64 bytes @ 0x08000440) -- Read from C cache (2 bytes @ 0x08000462) -- Data:  28 46  returns 0x00 (0001ms, 0637ms total)
T1650 022:935 JLINK_ReadMem (0x08000464, 0x003C Bytes, ...) -- CPU_ReadMem(64 bytes @ 0x08000480) -- Updating C cache (64 bytes @ 0x08000480) -- Read from C cache (60 bytes @ 0x08000464) -- Data:  0F F0 58 FA 04 F1 64 02 C4 F1 64 01 20 46 0E F0 ...  returns 0x00 (0001ms, 0638ms total)
T1ED4 043:572 JLINK_Step() -- Read from C cache (2 bytes @ 0x08000462) -- Simulated  returns 0x00 (0001ms, 0639ms total)
T1ED4 043:573 JLINK_ReadReg(R15 (PC))  returns 0x08000464 (0000ms, 0639ms total)
T1ED4 043:573 JLINK_ReadReg(XPSR)  returns 0x01000000 (0000ms, 0639ms total)
T1ED4 043:573 JLINK_SetBPEx(Addr = 0x080005EE, Type = 0xFFFFFFF2)  returns 0x00000005 (0000ms, 0639ms total)
T1ED4 043:573 JLINK_SetBPEx(Addr = 0x08000462, Type = 0xFFFFFFF2)  returns 0x00000006 (0000ms, 0639ms total)
T1ED4 043:573 JLINK_Go() -- CPU_WriteMem(4 bytes @ 0xE0002000) -- CPU_WriteMem(4 bytes @ 0xE0002000) -- CPU_WriteMem(4 bytes @ 0xE0001004) (0003ms, 0642ms total)
T1ED4 043:676 JLINK_IsHalted()  returns TRUE (0003ms, 0645ms total)
T1ED4 043:680 JLINK_Halt()  returns 0x00 (0000ms, 0642ms total)
T1ED4 043:680 JLINK_IsHalted()  returns TRUE (0000ms, 0642ms total)
T1ED4 043:680 JLINK_IsHalted()  returns TRUE (0000ms, 0642ms total)
T1ED4 043:680 JLINK_IsHalted()  returns TRUE (0000ms, 0642ms total)
T1ED4 043:680 JLINK_ReadReg(R15 (PC))  returns 0x08000462 (0000ms, 0642ms total)
T1ED4 043:680 JLINK_ReadReg(XPSR)  returns 0x01000000 (0000ms, 0642ms total)
T1ED4 043:680 JLINK_ClrBPEx(BPHandle = 0x00000005)  returns 0x00 (0000ms, 0642ms total)
T1ED4 043:680 JLINK_ClrBPEx(BPHandle = 0x00000006)  returns 0x00 (0000ms, 0642ms total)
T1ED4 043:680 JLINK_ReadMemU32(0xE000ED30, 0x0001 Items, ...) -- CPU_ReadMem(4 bytes @ 0xE000ED30) -- Data:  03 00 00 00  returns 0x01 (0001ms, 0643ms total)
T1ED4 043:681 JLINK_ReadMemU32(0xE0001028, 0x0001 Items, ...) -- CPU_ReadMem(4 bytes @ 0xE0001028) -- Data:  00 00 00 00  returns 0x01 (0000ms, 0643ms total)
T1ED4 043:681 JLINK_ReadMemU32(0xE0001038, 0x0001 Items, ...) -- CPU_ReadMem(4 bytes @ 0xE0001038) -- Data:  00 02 00 00  returns 0x01 (0001ms, 0644ms total)
T1ED4 043:682 JLINK_ReadMemU32(0xE0001048, 0x0001 Items, ...) -- CPU_ReadMem(4 bytes @ 0xE0001048) -- Data:  00 00 00 00  returns 0x01 (0001ms, 0645ms total)
T1ED4 043:683 JLINK_ReadMemU32(0xE0001058, 0x0001 Items, ...) -- CPU_ReadMem(4 bytes @ 0xE0001058) -- Data:  00 00 00 00  returns 0x01 (0001ms, 0646ms total)
T1ED4 043:684 JLINK_ReadReg(R0)  returns 0x00000002 (0000ms, 0646ms total)
T1ED4 043:684 JLINK_ReadReg(R1)  returns 0x00000064 (0000ms, 0646ms total)
T1ED4 043:684 JLINK_ReadReg(R2)  returns 0x00000064 (0000ms, 0646ms total)
T1ED4 043:684 JLINK_ReadReg(R3)  returns 0x00000064 (0000ms, 0646ms total)
T1ED4 043:684 JLINK_ReadReg(R4)  returns 0x00000001 (0000ms, 0646ms total)
T1ED4 043:684 JLINK_ReadReg(R5)  returns 0x00000002 (0000ms, 0646ms total)
T1ED4 043:684 JLINK_ReadReg(R6)  returns 0x00000000 (0000ms, 0646ms total)
T1ED4 043:684 JLINK_ReadReg(R7)  returns 0x00000000 (0000ms, 0646ms total)
T1ED4 043:684 JLINK_ReadReg(R8)  returns 0x00000000 (0000ms, 0646ms total)
T1ED4 043:684 JLINK_ReadReg(R9)  returns 0x09090909 (0000ms, 0646ms total)
T1ED4 043:684 JLINK_ReadReg(R10)  returns 0x0801B73C (0000ms, 0646ms total)
T1ED4 043:684 JLINK_ReadReg(R11)  returns 0x00000000 (0000ms, 0646ms total)
T1ED4 043:684 JLINK_ReadReg(R12)  returns 0x080157B5 (0000ms, 0646ms total)
T1ED4 043:684 JLINK_ReadReg(R13 (SP))  returns 0x2000A7F8 (0000ms, 0646ms total)
T1ED4 043:684 JLINK_ReadReg(R14)  returns 0x0800A6A7 (0000ms, 0646ms total)
T1ED4 043:684 JLINK_ReadReg(R15 (PC))  returns 0x08000462 (0000ms, 0646ms total)
T1ED4 043:684 JLINK_ReadReg(XPSR)  returns 0x01000000 (0000ms, 0646ms total)
T1ED4 043:684 JLINK_ReadReg(MSP)  returns 0x2000A7F8 (0000ms, 0646ms total)
T1ED4 043:684 JLINK_ReadReg(PSP)  returns 0x20009248 (0000ms, 0646ms total)
T1ED4 043:684 JLINK_ReadReg(CFBP)  returns 0x00000000 (0000ms, 0646ms total)
T1650 043:685 JLINK_ReadMem (0x2000A804, 0x0004 Bytes, ...) -- CPU_ReadMem(64 bytes @ 0x2000A800) -- Updating C cache (64 bytes @ 0x2000A800) -- Read from C cache (4 bytes @ 0x2000A804) -- Data:  3F 05 00 08  returns 0x00 (0001ms, 0647ms total)
T1650 043:686 JLINK_ReadMem (0x2000A7F8, 0x0004 Bytes, ...) -- CPU_ReadMem(64 bytes @ 0x2000A7C0) -- Updating C cache (64 bytes @ 0x2000A7C0) -- Read from C cache (4 bytes @ 0x2000A7F8) -- Data:  00 00 00 00  returns 0x00 (0001ms, 0648ms total)
T1650 043:687 JLINK_ReadMem (0x2000A7FC, 0x0004 Bytes, ...) -- Read from C cache (4 bytes @ 0x2000A7FC) -- Data:  B0 9D 00 20  returns 0x00 (0000ms, 0648ms total)
T1650 043:687 JLINK_ReadMem (0x2000A800, 0x0004 Bytes, ...) -- Read from C cache (4 bytes @ 0x2000A800) -- Data:  00 00 00 00  returns 0x00 (0000ms, 0648ms total)
T1650 043:687 JLINK_ReadMem (0x2000A80C, 0x0004 Bytes, ...) -- Read from C cache (4 bytes @ 0x2000A80C) -- Data:  1D 02 00 08  returns 0x00 (0000ms, 0648ms total)
T1650 043:687 JLINK_ReadMemU32(0xE0001004, 0x0001 Items, ...) -- CPU_ReadMem(4 bytes @ 0xE0001004) -- Data:  17 CB 76 02  returns 0x01 (0001ms, 0649ms total)
T1ED4 048:926 JLINK_Step() -- CPU_ReadMem(64 bytes @ 0x08000440) -- Updating C cache (64 bytes @ 0x08000440) -- Read from C cache (2 bytes @ 0x08000462) -- Simulated  returns 0x00 (0002ms, 0651ms total)
T1ED4 048:928 JLINK_ReadReg(R15 (PC))  returns 0x08000464 (0000ms, 0651ms total)
T1ED4 048:928 JLINK_ReadReg(XPSR)  returns 0x01000000 (0000ms, 0651ms total)
T1ED4 048:928 JLINK_SetBPEx(Addr = 0x080005EE, Type = 0xFFFFFFF2)  returns 0x00000007 (0000ms, 0651ms total)
T1ED4 048:928 JLINK_SetBPEx(Addr = 0x08000462, Type = 0xFFFFFFF2)  returns 0x00000008 (0000ms, 0651ms total)
T1ED4 048:928 JLINK_Go() -- CPU_WriteMem(4 bytes @ 0xE0002000) -- CPU_WriteMem(4 bytes @ 0xE0002000) -- CPU_WriteMem(4 bytes @ 0xE0001004) (0003ms, 0654ms total)
T1ED4 049:031 JLINK_IsHalted()  returns TRUE (0003ms, 0657ms total)
T1ED4 049:034 JLINK_Halt()  returns 0x00 (0000ms, 0654ms total)
T1ED4 049:034 JLINK_IsHalted()  returns TRUE (0000ms, 0654ms total)
T1ED4 049:034 JLINK_IsHalted()  returns TRUE (0000ms, 0654ms total)
T1ED4 049:034 JLINK_IsHalted()  returns TRUE (0000ms, 0654ms total)
T1ED4 049:034 JLINK_ReadReg(R15 (PC))  returns 0x08000462 (0000ms, 0654ms total)
T1ED4 049:034 JLINK_ReadReg(XPSR)  returns 0x01000000 (0000ms, 0654ms total)
T1ED4 049:034 JLINK_ClrBPEx(BPHandle = 0x00000007)  returns 0x00 (0000ms, 0654ms total)
T1ED4 049:034 JLINK_ClrBPEx(BPHandle = 0x00000008)  returns 0x00 (0000ms, 0654ms total)
T1ED4 049:034 JLINK_ReadMemU32(0xE000ED30, 0x0001 Items, ...) -- CPU_ReadMem(4 bytes @ 0xE000ED30) -- Data:  03 00 00 00  returns 0x01 (0000ms, 0654ms total)
T1ED4 049:034 JLINK_ReadMemU32(0xE0001028, 0x0001 Items, ...) -- CPU_ReadMem(4 bytes @ 0xE0001028) -- Data:  00 00 00 00  returns 0x01 (0001ms, 0655ms total)
T1ED4 049:035 JLINK_ReadMemU32(0xE0001038, 0x0001 Items, ...) -- CPU_ReadMem(4 bytes @ 0xE0001038) -- Data:  00 02 00 00  returns 0x01 (0001ms, 0656ms total)
T1ED4 049:036 JLINK_ReadMemU32(0xE0001048, 0x0001 Items, ...) -- CPU_ReadMem(4 bytes @ 0xE0001048) -- Data:  00 00 00 00  returns 0x01 (0001ms, 0657ms total)
T1ED4 049:037 JLINK_ReadMemU32(0xE0001058, 0x0001 Items, ...) -- CPU_ReadMem(4 bytes @ 0xE0001058) -- Data:  00 00 00 00  returns 0x01 (0001ms, 0658ms total)
T1ED4 049:038 JLINK_ReadReg(R0)  returns 0x00000005 (0000ms, 0658ms total)
T1ED4 049:038 JLINK_ReadReg(R1)  returns 0x00000064 (0000ms, 0658ms total)
T1ED4 049:038 JLINK_ReadReg(R2)  returns 0x00010063 (0000ms, 0658ms total)
T1ED4 049:038 JLINK_ReadReg(R3)  returns 0x00010065 (0000ms, 0658ms total)
T1ED4 049:038 JLINK_ReadReg(R4)  returns 0x00000002 (0000ms, 0658ms total)
T1ED4 049:038 JLINK_ReadReg(R5)  returns 0x00000005 (0000ms, 0658ms total)
T1ED4 049:038 JLINK_ReadReg(R6)  returns 0x00000000 (0000ms, 0658ms total)
T1ED4 049:038 JLINK_ReadReg(R7)  returns 0x00000000 (0000ms, 0658ms total)
T1ED4 049:038 JLINK_ReadReg(R8)  returns 0x00000000 (0000ms, 0658ms total)
T1ED4 049:038 JLINK_ReadReg(R9)  returns 0x09090909 (0000ms, 0658ms total)
T1ED4 049:038 JLINK_ReadReg(R10)  returns 0x0801B73C (0000ms, 0658ms total)
T1ED4 049:038 JLINK_ReadReg(R11)  returns 0x00000000 (0000ms, 0658ms total)
T1ED4 049:038 JLINK_ReadReg(R12)  returns 0x00000000 (0000ms, 0658ms total)
T1ED4 049:038 JLINK_ReadReg(R13 (SP))  returns 0x2000A7F8 (0000ms, 0658ms total)
T1ED4 049:038 JLINK_ReadReg(R14)  returns 0x0800A6A7 (0000ms, 0658ms total)
T1ED4 049:038 JLINK_ReadReg(R15 (PC))  returns 0x08000462 (0000ms, 0658ms total)
T1ED4 049:038 JLINK_ReadReg(XPSR)  returns 0x01000000 (0000ms, 0658ms total)
T1ED4 049:038 JLINK_ReadReg(MSP)  returns 0x2000A7F8 (0000ms, 0658ms total)
T1ED4 049:038 JLINK_ReadReg(PSP)  returns 0x20009248 (0000ms, 0658ms total)
T1ED4 049:038 JLINK_ReadReg(CFBP)  returns 0x00000000 (0000ms, 0658ms total)
T1650 049:039 JLINK_ReadMem (0x2000A804, 0x0004 Bytes, ...) -- CPU_ReadMem(64 bytes @ 0x2000A800) -- Updating C cache (64 bytes @ 0x2000A800) -- Read from C cache (4 bytes @ 0x2000A804) -- Data:  3F 05 00 08  returns 0x00 (0001ms, 0659ms total)
T1650 049:040 JLINK_ReadMem (0x2000A7F8, 0x0004 Bytes, ...) -- CPU_ReadMem(64 bytes @ 0x2000A7C0) -- Updating C cache (64 bytes @ 0x2000A7C0) -- Read from C cache (4 bytes @ 0x2000A7F8) -- Data:  00 00 00 00  returns 0x00 (0001ms, 0660ms total)
T1650 049:041 JLINK_ReadMem (0x2000A7FC, 0x0004 Bytes, ...) -- Read from C cache (4 bytes @ 0x2000A7FC) -- Data:  B0 9D 00 20  returns 0x00 (0000ms, 0660ms total)
T1650 049:041 JLINK_ReadMem (0x2000A800, 0x0004 Bytes, ...) -- Read from C cache (4 bytes @ 0x2000A800) -- Data:  00 00 00 00  returns 0x00 (0000ms, 0660ms total)
T1650 049:041 JLINK_ReadMem (0x2000A80C, 0x0004 Bytes, ...) -- Read from C cache (4 bytes @ 0x2000A80C) -- Data:  1D 02 00 08  returns 0x00 (0000ms, 0660ms total)
T1650 049:041 JLINK_ReadMemU32(0xE0001004, 0x0001 Items, ...) -- CPU_ReadMem(4 bytes @ 0xE0001004) -- Data:  75 F1 76 02  returns 0x01 (0000ms, 0660ms total)
T1ED4 051:170 JLINK_Step() -- CPU_ReadMem(64 bytes @ 0x08000440) -- Updating C cache (64 bytes @ 0x08000440) -- Read from C cache (2 bytes @ 0x08000462) -- Simulated  returns 0x00 (0002ms, 0662ms total)
T1ED4 051:172 JLINK_ReadReg(R15 (PC))  returns 0x08000464 (0000ms, 0662ms total)
T1ED4 051:172 JLINK_ReadReg(XPSR)  returns 0x01000000 (0000ms, 0662ms total)
T1ED4 051:172 JLINK_SetBPEx(Addr = 0x080005EE, Type = 0xFFFFFFF2)  returns 0x00000009 (0000ms, 0662ms total)
T1ED4 051:172 JLINK_SetBPEx(Addr = 0x08000462, Type = 0xFFFFFFF2)  returns 0x0000000A (0000ms, 0662ms total)
T1ED4 051:172 JLINK_Go() -- CPU_WriteMem(4 bytes @ 0xE0002000) -- CPU_WriteMem(4 bytes @ 0xE0002000) -- CPU_WriteMem(4 bytes @ 0xE0001004) (0003ms, 0665ms total)
T1ED4 051:275 JLINK_IsHalted()  returns TRUE (0003ms, 0668ms total)
T1ED4 051:278 JLINK_Halt()  returns 0x00 (0000ms, 0665ms total)
T1ED4 051:278 JLINK_IsHalted()  returns TRUE (0000ms, 0665ms total)
T1ED4 051:278 JLINK_IsHalted()  returns TRUE (0000ms, 0665ms total)
T1ED4 051:278 JLINK_IsHalted()  returns TRUE (0000ms, 0665ms total)
T1ED4 051:278 JLINK_ReadReg(R15 (PC))  returns 0x08000462 (0000ms, 0665ms total)
T1ED4 051:278 JLINK_ReadReg(XPSR)  returns 0x01000000 (0000ms, 0665ms total)
T1ED4 051:278 JLINK_ClrBPEx(BPHandle = 0x00000009)  returns 0x00 (0000ms, 0665ms total)
T1ED4 051:278 JLINK_ClrBPEx(BPHandle = 0x0000000A)  returns 0x00 (0000ms, 0665ms total)
T1ED4 051:278 JLINK_ReadMemU32(0xE000ED30, 0x0001 Items, ...) -- CPU_ReadMem(4 bytes @ 0xE000ED30) -- Data:  03 00 00 00  returns 0x01 (0000ms, 0665ms total)
T1ED4 051:278 JLINK_ReadMemU32(0xE0001028, 0x0001 Items, ...) -- CPU_ReadMem(4 bytes @ 0xE0001028) -- Data:  00 00 00 00  returns 0x01 (0001ms, 0666ms total)
T1ED4 051:279 JLINK_ReadMemU32(0xE0001038, 0x0001 Items, ...) -- CPU_ReadMem(4 bytes @ 0xE0001038) -- Data:  00 02 00 00  returns 0x01 (0001ms, 0667ms total)
T1ED4 051:280 JLINK_ReadMemU32(0xE0001048, 0x0001 Items, ...) -- CPU_ReadMem(4 bytes @ 0xE0001048) -- Data:  00 00 00 00  returns 0x01 (0001ms, 0668ms total)
T1ED4 051:281 JLINK_ReadMemU32(0xE0001058, 0x0001 Items, ...) -- CPU_ReadMem(4 bytes @ 0xE0001058) -- Data:  00 00 00 00  returns 0x01 (0000ms, 0668ms total)
T1ED4 051:281 JLINK_ReadReg(R0)  returns 0x00000007 (0000ms, 0668ms total)
T1ED4 051:281 JLINK_ReadReg(R1)  returns 0x00000064 (0000ms, 0668ms total)
T1ED4 051:281 JLINK_ReadReg(R2)  returns 0x00020062 (0000ms, 0668ms total)
T1ED4 051:281 JLINK_ReadReg(R3)  returns 0x00020066 (0000ms, 0668ms total)
T1ED4 051:281 JLINK_ReadReg(R4)  returns 0x00000003 (0000ms, 0668ms total)
T1ED4 051:281 JLINK_ReadReg(R5)  returns 0x00000007 (0001ms, 0669ms total)
T1ED4 051:282 JLINK_ReadReg(R6)  returns 0x00000000 (0000ms, 0669ms total)
T1ED4 051:282 JLINK_ReadReg(R7)  returns 0x00000000 (0000ms, 0669ms total)
T1ED4 051:282 JLINK_ReadReg(R8)  returns 0x00000000 (0000ms, 0669ms total)
T1ED4 051:282 JLINK_ReadReg(R9)  returns 0x09090909 (0000ms, 0669ms total)
T1ED4 051:282 JLINK_ReadReg(R10)  returns 0x0801B73C (0000ms, 0669ms total)
T1ED4 051:282 JLINK_ReadReg(R11)  returns 0x00000000 (0000ms, 0669ms total)
T1ED4 051:282 JLINK_ReadReg(R12)  returns 0x00000000 (0000ms, 0669ms total)
T1ED4 051:282 JLINK_ReadReg(R13 (SP))  returns 0x2000A7F8 (0000ms, 0669ms total)
T1ED4 051:282 JLINK_ReadReg(R14)  returns 0x0800A6A7 (0000ms, 0669ms total)
T1ED4 051:282 JLINK_ReadReg(R15 (PC))  returns 0x08000462 (0000ms, 0669ms total)
T1ED4 051:282 JLINK_ReadReg(XPSR)  returns 0x01000000 (0000ms, 0669ms total)
T1ED4 051:282 JLINK_ReadReg(MSP)  returns 0x2000A7F8 (0000ms, 0669ms total)
T1ED4 051:282 JLINK_ReadReg(PSP)  returns 0x20009248 (0000ms, 0669ms total)
T1ED4 051:282 JLINK_ReadReg(CFBP)  returns 0x00000000 (0000ms, 0669ms total)
T1650 051:282 JLINK_ReadMem (0x2000A804, 0x0004 Bytes, ...) -- CPU_ReadMem(64 bytes @ 0x2000A800) -- Updating C cache (64 bytes @ 0x2000A800) -- Read from C cache (4 bytes @ 0x2000A804) -- Data:  3F 05 00 08  returns 0x00 (0001ms, 0670ms total)
T1650 051:283 JLINK_ReadMem (0x2000A7F8, 0x0004 Bytes, ...) -- CPU_ReadMem(64 bytes @ 0x2000A7C0) -- Updating C cache (64 bytes @ 0x2000A7C0) -- Read from C cache (4 bytes @ 0x2000A7F8) -- Data:  00 00 00 00  returns 0x00 (0002ms, 0672ms total)
T1650 051:285 JLINK_ReadMem (0x2000A7FC, 0x0004 Bytes, ...) -- Read from C cache (4 bytes @ 0x2000A7FC) -- Data:  B0 9D 00 20  returns 0x00 (0000ms, 0672ms total)
T1650 051:285 JLINK_ReadMem (0x2000A800, 0x0004 Bytes, ...) -- Read from C cache (4 bytes @ 0x2000A800) -- Data:  00 00 00 00  returns 0x00 (0000ms, 0672ms total)
T1650 051:285 JLINK_ReadMem (0x2000A80C, 0x0004 Bytes, ...) -- Read from C cache (4 bytes @ 0x2000A80C) -- Data:  1D 02 00 08  returns 0x00 (0000ms, 0672ms total)
T1650 051:285 JLINK_ReadMemU32(0xE0001004, 0x0001 Items, ...) -- CPU_ReadMem(4 bytes @ 0xE0001004) -- Data:  0E 1E 77 02  returns 0x01 (0000ms, 0672ms total)
T1ED4 054:296 JLINK_Step() -- CPU_ReadMem(64 bytes @ 0x08000440) -- Updating C cache (64 bytes @ 0x08000440) -- Read from C cache (2 bytes @ 0x08000462) -- Simulated  returns 0x00 (0002ms, 0675ms total)
T1ED4 054:298 JLINK_ReadReg(R15 (PC))  returns 0x08000464 (0000ms, 0675ms total)
T1ED4 054:298 JLINK_ReadReg(XPSR)  returns 0x01000000 (0000ms, 0675ms total)
T1ED4 054:298 JLINK_SetBPEx(Addr = 0x080005EE, Type = 0xFFFFFFF2)  returns 0x0000000B (0000ms, 0675ms total)
T1ED4 054:298 JLINK_SetBPEx(Addr = 0x08000462, Type = 0xFFFFFFF2)  returns 0x0000000C (0000ms, 0675ms total)
T1ED4 054:298 JLINK_Go() -- CPU_WriteMem(4 bytes @ 0xE0002000) -- CPU_WriteMem(4 bytes @ 0xE0002000) -- CPU_WriteMem(4 bytes @ 0xE0001004) (0003ms, 0678ms total)
T1ED4 054:401 JLINK_IsHalted()  returns TRUE (0003ms, 0681ms total)
T1ED4 054:404 JLINK_Halt()  returns 0x00 (0000ms, 0678ms total)
T1ED4 054:404 JLINK_IsHalted()  returns TRUE (0000ms, 0678ms total)
T1ED4 054:404 JLINK_IsHalted()  returns TRUE (0000ms, 0678ms total)
T1ED4 054:404 JLINK_IsHalted()  returns TRUE (0000ms, 0678ms total)
T1ED4 054:404 JLINK_ReadReg(R15 (PC))  returns 0x08000462 (0000ms, 0678ms total)
T1ED4 054:404 JLINK_ReadReg(XPSR)  returns 0x01000000 (0000ms, 0678ms total)
T1ED4 054:404 JLINK_ClrBPEx(BPHandle = 0x0000000B)  returns 0x00 (0000ms, 0678ms total)
T1ED4 054:404 JLINK_ClrBPEx(BPHandle = 0x0000000C)  returns 0x00 (0000ms, 0678ms total)
T1ED4 054:404 JLINK_ReadMemU32(0xE000ED30, 0x0001 Items, ...) -- CPU_ReadMem(4 bytes @ 0xE000ED30) -- Data:  03 00 00 00  returns 0x01 (0001ms, 0679ms total)
T1ED4 054:405 JLINK_ReadMemU32(0xE0001028, 0x0001 Items, ...) -- CPU_ReadMem(4 bytes @ 0xE0001028) -- Data:  00 00 00 00  returns 0x01 (0000ms, 0679ms total)
T1ED4 054:405 JLINK_ReadMemU32(0xE0001038, 0x0001 Items, ...) -- CPU_ReadMem(4 bytes @ 0xE0001038) -- Data:  00 02 00 00  returns 0x01 (0001ms, 0680ms total)
T1ED4 054:406 JLINK_ReadMemU32(0xE0001048, 0x0001 Items, ...) -- CPU_ReadMem(4 bytes @ 0xE0001048) -- Data:  00 00 00 00  returns 0x01 (0001ms, 0681ms total)
T1ED4 054:407 JLINK_ReadMemU32(0xE0001058, 0x0001 Items, ...) -- CPU_ReadMem(4 bytes @ 0xE0001058) -- Data:  00 00 00 00  returns 0x01 (0001ms, 0682ms total)
T1ED4 054:408 JLINK_ReadReg(R0)  returns 0x0000000A (0000ms, 0682ms total)
T1ED4 054:408 JLINK_ReadReg(R1)  returns 0x00000064 (0000ms, 0682ms total)
T1ED4 054:408 JLINK_ReadReg(R2)  returns 0x00030061 (0000ms, 0682ms total)
T1ED4 054:408 JLINK_ReadReg(R3)  returns 0x00030067 (0000ms, 0682ms total)
T1ED4 054:408 JLINK_ReadReg(R4)  returns 0x00000004 (0000ms, 0682ms total)
T1ED4 054:408 JLINK_ReadReg(R5)  returns 0x0000000A (0000ms, 0682ms total)
T1ED4 054:408 JLINK_ReadReg(R6)  returns 0x00000000 (0000ms, 0682ms total)
T1ED4 054:408 JLINK_ReadReg(R7)  returns 0x00000000 (0000ms, 0682ms total)
T1ED4 054:408 JLINK_ReadReg(R8)  returns 0x00000000 (0000ms, 0682ms total)
T1ED4 054:408 JLINK_ReadReg(R9)  returns 0x09090909 (0000ms, 0682ms total)
T1ED4 054:408 JLINK_ReadReg(R10)  returns 0x0801B73C (0000ms, 0682ms total)
T1ED4 054:408 JLINK_ReadReg(R11)  returns 0x00000000 (0000ms, 0682ms total)
T1ED4 054:408 JLINK_ReadReg(R12)  returns 0x00000000 (0000ms, 0682ms total)
T1ED4 054:408 JLINK_ReadReg(R13 (SP))  returns 0x2000A7F8 (0000ms, 0682ms total)
T1ED4 054:408 JLINK_ReadReg(R14)  returns 0x0800A6A7 (0000ms, 0682ms total)
T1ED4 054:408 JLINK_ReadReg(R15 (PC))  returns 0x08000462 (0000ms, 0682ms total)
T1ED4 054:408 JLINK_ReadReg(XPSR)  returns 0x01000000 (0000ms, 0682ms total)
T1ED4 054:408 JLINK_ReadReg(MSP)  returns 0x2000A7F8 (0000ms, 0682ms total)
T1ED4 054:408 JLINK_ReadReg(PSP)  returns 0x20009248 (0000ms, 0682ms total)
T1ED4 054:408 JLINK_ReadReg(CFBP)  returns 0x00000000 (0000ms, 0682ms total)
T1650 054:408 JLINK_ReadMem (0x2000A804, 0x0004 Bytes, ...) -- CPU_ReadMem(64 bytes @ 0x2000A800) -- Updating C cache (64 bytes @ 0x2000A800) -- Read from C cache (4 bytes @ 0x2000A804) -- Data:  3F 05 00 08  returns 0x00 (0002ms, 0684ms total)
T1650 054:410 JLINK_ReadMem (0x2000A7F8, 0x0004 Bytes, ...) -- CPU_ReadMem(64 bytes @ 0x2000A7C0) -- Updating C cache (64 bytes @ 0x2000A7C0) -- Read from C cache (4 bytes @ 0x2000A7F8) -- Data:  00 00 00 00  returns 0x00 (0001ms, 0685ms total)
T1650 054:411 JLINK_ReadMem (0x2000A7FC, 0x0004 Bytes, ...) -- Read from C cache (4 bytes @ 0x2000A7FC) -- Data:  B0 9D 00 20  returns 0x00 (0000ms, 0685ms total)
T1650 054:411 JLINK_ReadMem (0x2000A800, 0x0004 Bytes, ...) -- Read from C cache (4 bytes @ 0x2000A800) -- Data:  00 00 00 00  returns 0x00 (0000ms, 0685ms total)
T1650 054:411 JLINK_ReadMem (0x2000A80C, 0x0004 Bytes, ...) -- Read from C cache (4 bytes @ 0x2000A80C) -- Data:  1D 02 00 08  returns 0x00 (0000ms, 0685ms total)
T1650 054:411 JLINK_ReadMemU32(0xE0001004, 0x0001 Items, ...) -- CPU_ReadMem(4 bytes @ 0xE0001004) -- Data:  15 52 77 02  returns 0x01 (0001ms, 0686ms total)
T1ED4 057:433 JLINK_Step() -- CPU_ReadMem(64 bytes @ 0x08000440) -- Updating C cache (64 bytes @ 0x08000440) -- Read from C cache (2 bytes @ 0x08000462) -- Simulated  returns 0x00 (0002ms, 0688ms total)
T1ED4 057:435 JLINK_ReadReg(R15 (PC))  returns 0x08000464 (0000ms, 0688ms total)
T1ED4 057:435 JLINK_ReadReg(XPSR)  returns 0x01000000 (0000ms, 0688ms total)
T1ED4 057:435 JLINK_SetBPEx(Addr = 0x080005EE, Type = 0xFFFFFFF2)  returns 0x0000000D (0000ms, 0688ms total)
T1ED4 057:435 JLINK_SetBPEx(Addr = 0x08000462, Type = 0xFFFFFFF2)  returns 0x0000000E (0000ms, 0688ms total)
T1ED4 057:435 JLINK_Go() -- CPU_WriteMem(4 bytes @ 0xE0002000) -- CPU_WriteMem(4 bytes @ 0xE0002000) -- CPU_WriteMem(4 bytes @ 0xE0001004) (0003ms, 0691ms total)
T1ED4 057:538 JLINK_IsHalted()  returns TRUE (0002ms, 0693ms total)
T1ED4 057:541 JLINK_Halt()  returns 0x00 (0000ms, 0691ms total)
T1ED4 057:541 JLINK_IsHalted()  returns TRUE (0000ms, 0691ms total)
T1ED4 057:541 JLINK_IsHalted()  returns TRUE (0000ms, 0691ms total)
T1ED4 057:541 JLINK_IsHalted()  returns TRUE (0000ms, 0691ms total)
T1ED4 057:541 JLINK_ReadReg(R15 (PC))  returns 0x08000462 (0000ms, 0691ms total)
T1ED4 057:541 JLINK_ReadReg(XPSR)  returns 0x01000000 (0000ms, 0691ms total)
T1ED4 057:541 JLINK_ClrBPEx(BPHandle = 0x0000000D)  returns 0x00 (0000ms, 0691ms total)
T1ED4 057:541 JLINK_ClrBPEx(BPHandle = 0x0000000E)  returns 0x00 (0000ms, 0691ms total)
T1ED4 057:541 JLINK_ReadMemU32(0xE000ED30, 0x0001 Items, ...) -- CPU_ReadMem(4 bytes @ 0xE000ED30) -- Data:  03 00 00 00  returns 0x01 (0000ms, 0691ms total)
T1ED4 057:541 JLINK_ReadMemU32(0xE0001028, 0x0001 Items, ...) -- CPU_ReadMem(4 bytes @ 0xE0001028) -- Data:  00 00 00 00  returns 0x01 (0001ms, 0692ms total)
T1ED4 057:542 JLINK_ReadMemU32(0xE0001038, 0x0001 Items, ...) -- CPU_ReadMem(4 bytes @ 0xE0001038) -- Data:  00 02 00 00  returns 0x01 (0001ms, 0693ms total)
T1ED4 057:543 JLINK_ReadMemU32(0xE0001048, 0x0001 Items, ...) -- CPU_ReadMem(4 bytes @ 0xE0001048) -- Data:  00 00 00 00  returns 0x01 (0001ms, 0694ms total)
T1ED4 057:544 JLINK_ReadMemU32(0xE0001058, 0x0001 Items, ...) -- CPU_ReadMem(4 bytes @ 0xE0001058) -- Data:  00 00 00 00  returns 0x01 (0001ms, 0695ms total)
T1ED4 057:545 JLINK_ReadReg(R0)  returns 0x0000000C (0000ms, 0695ms total)
T1ED4 057:545 JLINK_ReadReg(R1)  returns 0x00000064 (0000ms, 0695ms total)
T1ED4 057:545 JLINK_ReadReg(R2)  returns 0x00040060 (0000ms, 0695ms total)
T1ED4 057:545 JLINK_ReadReg(R3)  returns 0x00040068 (0000ms, 0695ms total)
T1ED4 057:545 JLINK_ReadReg(R4)  returns 0x00000005 (0000ms, 0695ms total)
T1ED4 057:545 JLINK_ReadReg(R5)  returns 0x0000000C (0000ms, 0695ms total)
T1ED4 057:545 JLINK_ReadReg(R6)  returns 0x00000000 (0000ms, 0695ms total)
T1ED4 057:545 JLINK_ReadReg(R7)  returns 0x00000000 (0000ms, 0695ms total)
T1ED4 057:545 JLINK_ReadReg(R8)  returns 0x00000000 (0000ms, 0695ms total)
T1ED4 057:545 JLINK_ReadReg(R9)  returns 0x09090909 (0000ms, 0695ms total)
T1ED4 057:545 JLINK_ReadReg(R10)  returns 0x0801B73C (0000ms, 0695ms total)
T1ED4 057:545 JLINK_ReadReg(R11)  returns 0x00000000 (0000ms, 0695ms total)
T1ED4 057:545 JLINK_ReadReg(R12)  returns 0x00000000 (0000ms, 0695ms total)
T1ED4 057:545 JLINK_ReadReg(R13 (SP))  returns 0x2000A7F8 (0000ms, 0695ms total)
T1ED4 057:545 JLINK_ReadReg(R14)  returns 0x0800A6A7 (0000ms, 0695ms total)
T1ED4 057:545 JLINK_ReadReg(R15 (PC))  returns 0x08000462 (0000ms, 0695ms total)
T1ED4 057:545 JLINK_ReadReg(XPSR)  returns 0x01000000 (0000ms, 0695ms total)
T1ED4 057:545 JLINK_ReadReg(MSP)  returns 0x2000A7F8 (0000ms, 0695ms total)
T1ED4 057:545 JLINK_ReadReg(PSP)  returns 0x20009248 (0000ms, 0695ms total)
T1ED4 057:545 JLINK_ReadReg(CFBP)  returns 0x00000000 (0000ms, 0695ms total)
T1650 057:545 JLINK_ReadMem (0x2000A804, 0x0004 Bytes, ...) -- CPU_ReadMem(64 bytes @ 0x2000A800) -- Updating C cache (64 bytes @ 0x2000A800) -- Read from C cache (4 bytes @ 0x2000A804) -- Data:  3F 05 00 08  returns 0x00 (0001ms, 0696ms total)
T1650 057:546 JLINK_ReadMem (0x2000A7F8, 0x0004 Bytes, ...) -- CPU_ReadMem(64 bytes @ 0x2000A7C0) -- Updating C cache (64 bytes @ 0x2000A7C0) -- Read from C cache (4 bytes @ 0x2000A7F8) -- Data:  00 00 00 00  returns 0x00 (0002ms, 0698ms total)
T1650 057:548 JLINK_ReadMem (0x2000A7FC, 0x0004 Bytes, ...) -- Read from C cache (4 bytes @ 0x2000A7FC) -- Data:  B0 9D 00 20  returns 0x00 (0000ms, 0698ms total)
T1650 057:548 JLINK_ReadMem (0x2000A800, 0x0004 Bytes, ...) -- Read from C cache (4 bytes @ 0x2000A800) -- Data:  00 00 00 00  returns 0x00 (0000ms, 0698ms total)
T1650 057:548 JLINK_ReadMem (0x2000A80C, 0x0004 Bytes, ...) -- Read from C cache (4 bytes @ 0x2000A80C) -- Data:  1D 02 00 08  returns 0x00 (0000ms, 0698ms total)
T1650 057:548 JLINK_ReadMemU32(0xE0001004, 0x0001 Items, ...) -- CPU_ReadMem(4 bytes @ 0xE0001004) -- Data:  3B 8C 77 02  returns 0x01 (0001ms, 0699ms total)
T1ED4 058:328 JLINK_Step() -- CPU_ReadMem(64 bytes @ 0x08000440) -- Updating C cache (64 bytes @ 0x08000440) -- Read from C cache (2 bytes @ 0x08000462) -- Simulated  returns 0x00 (0002ms, 0701ms total)
T1ED4 058:330 JLINK_ReadReg(R15 (PC))  returns 0x08000464 (0000ms, 0701ms total)
T1ED4 058:330 JLINK_ReadReg(XPSR)  returns 0x01000000 (0000ms, 0701ms total)
T1ED4 058:330 JLINK_SetBPEx(Addr = 0x080005EE, Type = 0xFFFFFFF2)  returns 0x0000000F (0000ms, 0701ms total)
T1ED4 058:330 JLINK_SetBPEx(Addr = 0x08000462, Type = 0xFFFFFFF2)  returns 0x00000010 (0000ms, 0701ms total)
T1ED4 058:330 JLINK_Go() -- CPU_WriteMem(4 bytes @ 0xE0002000) -- CPU_WriteMem(4 bytes @ 0xE0002000) -- CPU_WriteMem(4 bytes @ 0xE0001004) (0003ms, 0704ms total)
T1ED4 058:433 JLINK_IsHalted()  returns TRUE (0003ms, 0707ms total)
T1ED4 058:436 JLINK_Halt()  returns 0x00 (0000ms, 0704ms total)
T1ED4 058:436 JLINK_IsHalted()  returns TRUE (0000ms, 0704ms total)
T1ED4 058:436 JLINK_IsHalted()  returns TRUE (0000ms, 0704ms total)
T1ED4 058:436 JLINK_IsHalted()  returns TRUE (0000ms, 0704ms total)
T1ED4 058:436 JLINK_ReadReg(R15 (PC))  returns 0x08000462 (0000ms, 0704ms total)
T1ED4 058:436 JLINK_ReadReg(XPSR)  returns 0x01000000 (0000ms, 0704ms total)
T1ED4 058:436 JLINK_ClrBPEx(BPHandle = 0x0000000F)  returns 0x00 (0000ms, 0704ms total)
T1ED4 058:436 JLINK_ClrBPEx(BPHandle = 0x00000010)  returns 0x00 (0000ms, 0704ms total)
T1ED4 058:436 JLINK_ReadMemU32(0xE000ED30, 0x0001 Items, ...) -- CPU_ReadMem(4 bytes @ 0xE000ED30) -- Data:  03 00 00 00  returns 0x01 (0001ms, 0705ms total)
T1ED4 058:437 JLINK_ReadMemU32(0xE0001028, 0x0001 Items, ...) -- CPU_ReadMem(4 bytes @ 0xE0001028) -- Data:  00 00 00 00  returns 0x01 (0001ms, 0706ms total)
T1ED4 058:438 JLINK_ReadMemU32(0xE0001038, 0x0001 Items, ...) -- CPU_ReadMem(4 bytes @ 0xE0001038) -- Data:  00 02 00 00  returns 0x01 (0000ms, 0706ms total)
T1ED4 058:438 JLINK_ReadMemU32(0xE0001048, 0x0001 Items, ...) -- CPU_ReadMem(4 bytes @ 0xE0001048) -- Data:  00 00 00 00  returns 0x01 (0001ms, 0707ms total)
T1ED4 058:439 JLINK_ReadMemU32(0xE0001058, 0x0001 Items, ...) -- CPU_ReadMem(4 bytes @ 0xE0001058) -- Data:  00 00 00 00  returns 0x01 (0001ms, 0708ms total)
T1ED4 058:440 JLINK_ReadReg(R0)  returns 0x0000000F (0000ms, 0708ms total)
T1ED4 058:440 JLINK_ReadReg(R1)  returns 0x00000064 (0000ms, 0708ms total)
T1ED4 058:440 JLINK_ReadReg(R2)  returns 0x0005005F (0000ms, 0708ms total)
T1ED4 058:440 JLINK_ReadReg(R3)  returns 0x00050069 (0000ms, 0708ms total)
T1ED4 058:440 JLINK_ReadReg(R4)  returns 0x00000006 (0000ms, 0708ms total)
T1ED4 058:440 JLINK_ReadReg(R5)  returns 0x0000000F (0000ms, 0708ms total)
T1ED4 058:440 JLINK_ReadReg(R6)  returns 0x00000000 (0000ms, 0708ms total)
T1ED4 058:440 JLINK_ReadReg(R7)  returns 0x00000000 (0000ms, 0708ms total)
T1ED4 058:440 JLINK_ReadReg(R8)  returns 0x00000000 (0000ms, 0708ms total)
T1ED4 058:440 JLINK_ReadReg(R9)  returns 0x09090909 (0000ms, 0708ms total)
T1ED4 058:440 JLINK_ReadReg(R10)  returns 0x0801B73C (0000ms, 0708ms total)
T1ED4 058:440 JLINK_ReadReg(R11)  returns 0x00000000 (0000ms, 0708ms total)
T1ED4 058:440 JLINK_ReadReg(R12)  returns 0x00000000 (0000ms, 0708ms total)
T1ED4 058:440 JLINK_ReadReg(R13 (SP))  returns 0x2000A7F8 (0000ms, 0708ms total)
T1ED4 058:440 JLINK_ReadReg(R14)  returns 0x0800A6A7 (0000ms, 0708ms total)
T1ED4 058:440 JLINK_ReadReg(R15 (PC))  returns 0x08000462 (0000ms, 0708ms total)
T1ED4 058:440 JLINK_ReadReg(XPSR)  returns 0x01000000 (0000ms, 0708ms total)
T1ED4 058:440 JLINK_ReadReg(MSP)  returns 0x2000A7F8 (0000ms, 0708ms total)
T1ED4 058:440 JLINK_ReadReg(PSP)  returns 0x20009248 (0000ms, 0708ms total)
T1ED4 058:440 JLINK_ReadReg(CFBP)  returns 0x00000000 (0000ms, 0708ms total)
T1650 058:441 JLINK_ReadMem (0x2000A804, 0x0004 Bytes, ...) -- CPU_ReadMem(64 bytes @ 0x2000A800) -- Updating C cache (64 bytes @ 0x2000A800) -- Read from C cache (4 bytes @ 0x2000A804) -- Data:  3F 05 00 08  returns 0x00 (0001ms, 0709ms total)
T1650 058:442 JLINK_ReadMem (0x2000A7F8, 0x0004 Bytes, ...) -- CPU_ReadMem(64 bytes @ 0x2000A7C0) -- Updating C cache (64 bytes @ 0x2000A7C0) -- Read from C cache (4 bytes @ 0x2000A7F8) -- Data:  00 00 00 00  returns 0x00 (0001ms, 0710ms total)
T1650 058:443 JLINK_ReadMem (0x2000A7FC, 0x0004 Bytes, ...) -- Read from C cache (4 bytes @ 0x2000A7FC) -- Data:  B0 9D 00 20  returns 0x00 (0000ms, 0710ms total)
T1650 058:443 JLINK_ReadMem (0x2000A800, 0x0004 Bytes, ...) -- Read from C cache (4 bytes @ 0x2000A800) -- Data:  00 00 00 00  returns 0x00 (0000ms, 0710ms total)
T1650 058:443 JLINK_ReadMem (0x2000A80C, 0x0004 Bytes, ...) -- Read from C cache (4 bytes @ 0x2000A80C) -- Data:  1D 02 00 08  returns 0x00 (0000ms, 0710ms total)
T1650 058:443 JLINK_ReadMemU32(0xE0001004, 0x0001 Items, ...) -- CPU_ReadMem(4 bytes @ 0xE0001004) -- Data:  27 CD 77 02  returns 0x01 (0001ms, 0711ms total)
T1ED4 059:766 JLINK_Step() -- CPU_ReadMem(64 bytes @ 0x08000440) -- Updating C cache (64 bytes @ 0x08000440) -- Read from C cache (2 bytes @ 0x08000462) -- Simulated  returns 0x00 (0002ms, 0713ms total)
T1ED4 059:768 JLINK_ReadReg(R15 (PC))  returns 0x08000464 (0000ms, 0713ms total)
T1ED4 059:768 JLINK_ReadReg(XPSR)  returns 0x01000000 (0000ms, 0713ms total)
T1ED4 059:768 JLINK_SetBPEx(Addr = 0x080005EE, Type = 0xFFFFFFF2)  returns 0x00000011 (0000ms, 0713ms total)
T1ED4 059:768 JLINK_SetBPEx(Addr = 0x08000462, Type = 0xFFFFFFF2)  returns 0x00000012 (0000ms, 0713ms total)
T1ED4 059:768 JLINK_Go() -- CPU_WriteMem(4 bytes @ 0xE0002000) -- CPU_WriteMem(4 bytes @ 0xE0002000) -- CPU_WriteMem(4 bytes @ 0xE0001004) (0003ms, 0716ms total)
T1ED4 059:871 JLINK_IsHalted()  returns TRUE (0003ms, 0719ms total)
T1ED4 059:874 JLINK_Halt()  returns 0x00 (0000ms, 0716ms total)
T1ED4 059:874 JLINK_IsHalted()  returns TRUE (0000ms, 0716ms total)
T1ED4 059:874 JLINK_IsHalted()  returns TRUE (0000ms, 0716ms total)
T1ED4 059:874 JLINK_IsHalted()  returns TRUE (0000ms, 0716ms total)
T1ED4 059:874 JLINK_ReadReg(R15 (PC))  returns 0x08000462 (0000ms, 0716ms total)
T1ED4 059:874 JLINK_ReadReg(XPSR)  returns 0x01000000 (0000ms, 0716ms total)
T1ED4 059:874 JLINK_ClrBPEx(BPHandle = 0x00000011)  returns 0x00 (0000ms, 0716ms total)
T1ED4 059:874 JLINK_ClrBPEx(BPHandle = 0x00000012)  returns 0x00 (0000ms, 0716ms total)
T1ED4 059:874 JLINK_ReadMemU32(0xE000ED30, 0x0001 Items, ...) -- CPU_ReadMem(4 bytes @ 0xE000ED30) -- Data:  03 00 00 00  returns 0x01 (0000ms, 0716ms total)
T1ED4 059:874 JLINK_ReadMemU32(0xE0001028, 0x0001 Items, ...) -- CPU_ReadMem(4 bytes @ 0xE0001028) -- Data:  00 00 00 00  returns 0x01 (0001ms, 0717ms total)
T1ED4 059:875 JLINK_ReadMemU32(0xE0001038, 0x0001 Items, ...) -- CPU_ReadMem(4 bytes @ 0xE0001038) -- Data:  00 02 00 00  returns 0x01 (0001ms, 0718ms total)
T1ED4 059:876 JLINK_ReadMemU32(0xE0001048, 0x0001 Items, ...) -- CPU_ReadMem(4 bytes @ 0xE0001048) -- Data:  00 00 00 00  returns 0x01 (0000ms, 0718ms total)
T1ED4 059:876 JLINK_ReadMemU32(0xE0001058, 0x0001 Items, ...) -- CPU_ReadMem(4 bytes @ 0xE0001058) -- Data:  00 00 00 00  returns 0x01 (0001ms, 0719ms total)
T1ED4 059:877 JLINK_ReadReg(R0)  returns 0x00000011 (0000ms, 0719ms total)
T1ED4 059:877 JLINK_ReadReg(R1)  returns 0x00000064 (0000ms, 0719ms total)
T1ED4 059:877 JLINK_ReadReg(R2)  returns 0x0006005E (0000ms, 0719ms total)
T1ED4 059:877 JLINK_ReadReg(R3)  returns 0x0006006A (0000ms, 0719ms total)
T1ED4 059:877 JLINK_ReadReg(R4)  returns 0x00000007 (0000ms, 0719ms total)
T1ED4 059:877 JLINK_ReadReg(R5)  returns 0x00000011 (0000ms, 0719ms total)
T1ED4 059:877 JLINK_ReadReg(R6)  returns 0x00000000 (0000ms, 0719ms total)
T1ED4 059:877 JLINK_ReadReg(R7)  returns 0x00000000 (0000ms, 0719ms total)
T1ED4 059:877 JLINK_ReadReg(R8)  returns 0x00000000 (0000ms, 0719ms total)
T1ED4 059:877 JLINK_ReadReg(R9)  returns 0x09090909 (0000ms, 0719ms total)
T1ED4 059:877 JLINK_ReadReg(R10)  returns 0x0801B73C (0000ms, 0719ms total)
T1ED4 059:877 JLINK_ReadReg(R11)  returns 0x00000000 (0000ms, 0719ms total)
T1ED4 059:877 JLINK_ReadReg(R12)  returns 0x00000000 (0000ms, 0719ms total)
T1ED4 059:877 JLINK_ReadReg(R13 (SP))  returns 0x2000A7F8 (0000ms, 0719ms total)
T1ED4 059:877 JLINK_ReadReg(R14)  returns 0x0800A6A7 (0000ms, 0719ms total)
T1ED4 059:877 JLINK_ReadReg(R15 (PC))  returns 0x08000462 (0000ms, 0719ms total)
T1ED4 059:877 JLINK_ReadReg(XPSR)  returns 0x01000000 (0000ms, 0719ms total)
T1ED4 059:877 JLINK_ReadReg(MSP)  returns 0x2000A7F8 (0000ms, 0719ms total)
T1ED4 059:877 JLINK_ReadReg(PSP)  returns 0x20009248 (0000ms, 0719ms total)
T1ED4 059:877 JLINK_ReadReg(CFBP)  returns 0x00000000 (0000ms, 0719ms total)
